T2688 000:013.385   SEGGER J-Link V7.82 Log File
T2688 000:013.663   DLL Compiled: Oct 13 2022 13:32:51
T2688 000:013.679   Logging started @ 2024-04-27 18:21
T2688 000:013.694 - 13.701ms
T2688 000:013.721 JLINK_SetWarnOutHandler(...)
T2688 000:013.741 - 0.026ms
T2688 000:013.758 JLINK_OpenEx(...)
T2688 000:018.477   Firmware: J-Link V9 compiled May  7 2021 16:26:12
T2688 000:019.095   Firmware: J-Link V9 compiled May  7 2021 16:26:12
T2688 000:019.394   Decompressing FW timestamp took 239 us
T2688 000:028.289   Hardware: V9.60
T2688 000:028.335   S/N: 69613361
T2688 000:028.355   OEM: SEGGER
T2688 000:028.374   Feature(s): GDB, RDI, FlashBP, FlashDL, JFlash
T2688 000:040.038   TELNET listener socket opened on port 19021
T2688 000:040.384   WEBSRV WEBSRV_Init(): Starting webserver thread(s)
T2688 000:040.763   WEBSRV Webserver running on local port 19080
T2688 000:048.301 - 34.577ms returns "O.K."
T2688 000:048.375 JLINK_GetEmuCaps()
T2688 000:048.386 - 0.015ms returns 0xB9FF7BBF
T2688 000:048.418 JLINK_TIF_GetAvailable(...)
T2688 000:049.015 - 0.628ms
T2688 000:049.066 JLINK_SetErrorOutHandler(...)
T2688 000:049.090 - 0.032ms
T2688 000:049.138 JLINK_ExecCommand("ProjectFile = "D:\Users\lisy\Desktop\Work\chudi\NearLink\Code\NearLink\NearLink\MDK-ARM\JLinkSettings.ini"", ...). 
T2688 000:068.529 - 19.408ms returns 0x00
T2688 000:068.635 JLINK_ExecCommand("Device = STM32F429VETx", ...). 
T2688 000:069.217   Flash bank @ 0x90000000: SFL: Parsing sectorization info from ELF file
T2688 000:069.235     FlashDevice.SectorInfo[0]: .SectorSize = 0x00010000, .SectorStartAddr = 0x00000000
T2688 000:069.249   OFL: Init() present @ offset 0x00000649
T2688 000:069.262   OFL: UnInit() present @ offset 0x00000663
T2688 000:069.274   OFL: EraseSector() present @ offset 0x00000671
T2688 000:069.285   OFL: ProgramPage() present @ offset 0x000006E9
T2688 000:069.297   OFL: EraseChip() N/A
T2688 000:069.309   OFL: BlankCheck() N/A
T2688 000:069.320   OFL: Verify() N/A
T2688 000:069.332   OFL: SEGGER_FL_Erase() N/A
T2688 000:069.344   OFL: SEGGER_OPEN_Erase() N/A
T2688 000:069.356   OFL: SEGGER_FL_Program() N/A
T2688 000:069.368   OFL: SEGGER_OPEN_Program() N/A
T2688 000:069.379   OFL: SEGGER_FL_Read() N/A
T2688 000:069.391   OFL: SEGGER_OPEN_Read() N/A
T2688 000:069.403   OFL: SEGGER_FL_CalcCRC() N/A
T2688 000:069.415   OFL: SEGGER_OPEN_CalcCRC() N/A
T2688 000:069.426   OFL: SEGGER_FL_Start() N/A
T2688 000:069.438   OFL: SEGGER_OPEN_Start() N/A
T2688 000:069.450   OFL: SEGGER_FL_GetFlashInfo() N/A
T2688 000:069.461   OFL: SEGGER_OPEN_GetFlashInfo() N/A
T2688 000:069.473   OFL: SEGGER_FL_Verify() N/A
T2688 000:069.485   OFL: SEGGER_FL_CheckBlank() N/A
T2688 000:069.497   OFL: SEGGER_FL_Prepare() N/A
T2688 000:069.508   OFL: SEGGER_FL_Restore() N/A
T2688 000:069.520   OFL: SEGGER_FL_EraseChip() N/A
T2688 000:070.800   Device "STM32F429VE" selected.
T2688 000:071.288 - 2.655ms returns 0x00
T2688 000:071.326 JLINK_ExecCommand("DisableConnectionTimeout", ...). 
T2688 000:071.350 - 0.008ms returns 0x01
T2688 000:071.364 JLINK_GetHardwareVersion()
T2688 000:071.374 - 0.014ms returns 96000
T2688 000:071.393 JLINK_GetDLLVersion()
T2688 000:071.402 - 0.013ms returns 78200
T2688 000:071.414 JLINK_GetOEMString(...)
T2688 000:071.426 JLINK_GetFirmwareString(...)
T2688 000:071.435 - 0.013ms
T2688 000:071.571 JLINK_GetDLLVersion()
T2688 000:071.583 - 0.016ms returns 78200
T2688 000:071.595 JLINK_GetCompileDateTime()
T2688 000:071.603 - 0.013ms
T2688 000:071.647 JLINK_GetFirmwareString(...)
T2688 000:071.658 - 0.015ms
T2688 000:071.700 JLINK_GetHardwareVersion()
T2688 000:071.711 - 0.015ms returns 96000
T2688 000:071.752 JLINK_GetSN()
T2688 000:071.768 - 0.021ms returns 69613361
T2688 000:071.810 JLINK_GetOEMString(...)
T2688 000:071.879 JLINK_TIF_Select(JLINKARM_TIF_SWD)
T2688 000:073.474 - 1.615ms returns 0x00
T2688 000:073.508 JLINK_HasError()
T2688 000:073.536 JLINK_SetSpeed(1000)
T2688 000:073.848 - 0.327ms
T2688 000:073.881 JLINK_GetId()
T2688 000:074.374   InitTarget() start
T2688 000:074.493    J-Link Script File: Executing InitTarget()
T2688 000:092.695   InitTarget() end
T2688 000:094.082   Found SW-DP with ID 0x2BA01477
T2688 000:098.307   DPIDR: 0x2BA01477
T2688 000:098.381   CoreSight SoC-400 or earlier
T2688 000:098.444   Scanning AP map to find all available APs
T2688 000:100.160   AP[1]: Stopped AP scan as end of AP map has been reached
T2688 000:100.229   AP[0]: AHB-AP (IDR: 0x24770011)
T2688 000:100.281   Iterating through AP map to find AHB-AP to use
T2688 000:101.912   AP[0]: Core found
T2688 000:101.985   AP[0]: AHB-AP ROM base: 0xE00FF000
T2688 000:102.938   CPUID register: 0x410FC241. Implementer code: 0x41 (ARM)
T2688 000:103.015   Found Cortex-M4 r0p1, Little endian.
T2688 000:103.871   -- Max. mem block: 0x00010760
T2688 000:106.795   CPU_ReadMem(4 bytes @ 0xE000EDF0)
T2688 000:107.774   CPU_ReadMem(4 bytes @ 0xE0002000)
T2688 000:108.857   FPUnit: 6 code (BP) slots and 2 literal slots
T2688 000:108.896   CPU_ReadMem(4 bytes @ 0xE000EDFC)
T2688 000:109.752   CPU_WriteMem(4 bytes @ 0xE000EDFC)
T2688 000:110.641   CPU_ReadMem(4 bytes @ 0xE0001000)
T2688 000:111.641   CPU_WriteMem(4 bytes @ 0xE0001000)
T2688 000:112.630   CPU_ReadMem(4 bytes @ 0xE000ED88)
T2688 000:113.641   CPU_WriteMem(4 bytes @ 0xE000ED88)
T2688 000:114.626   CPU_ReadMem(4 bytes @ 0xE000ED88)
T2688 000:115.626   CPU_WriteMem(4 bytes @ 0xE000ED88)
T2688 000:116.720   CoreSight components:
T2688 000:116.812   ROMTbl[0] @ E00FF000
T2688 000:116.839   CPU_ReadMem(64 bytes @ 0xE00FF000)
T2688 000:118.520   CPU_ReadMem(32 bytes @ 0xE000EFE0)
T2688 000:119.963   [0][0]: E000E000 CID B105E00D PID 000BB00C SCS-M7
T2688 000:120.000   CPU_ReadMem(32 bytes @ 0xE0001FE0)
T2688 000:121.212   [0][1]: E0001000 CID B105E00D PID 003BB002 DWT
T2688 000:121.249   CPU_ReadMem(32 bytes @ 0xE0002FE0)
T2688 000:122.467   [0][2]: E0002000 CID B105E00D PID 002BB003 FPB
T2688 000:122.504   CPU_ReadMem(32 bytes @ 0xE0000FE0)
T2688 000:123.851   [0][3]: E0000000 CID B105E00D PID 003BB001 ITM
T2688 000:123.888   CPU_ReadMem(32 bytes @ 0xE0040FE0)
T2688 000:125.206   [0][4]: E0040000 CID B105900D PID 000BB9A1 TPIU
T2688 000:125.242   CPU_ReadMem(32 bytes @ 0xE0041FE0)
T2688 000:126.474   [0][5]: E0041000 CID B105900D PID 000BB925 ETM
T2688 000:127.151 - 53.287ms returns 0x2BA01477
T2688 000:127.189 JLINK_GetDLLVersion()
T2688 000:127.200 - 0.014ms returns 78200
T2688 000:127.215 JLINK_CORE_GetFound()
T2688 000:127.225 - 0.014ms returns 0xE0000FF
T2688 000:127.238 JLINK_GetDebugInfo(0x100 = JLINKARM_ROM_TABLE_ADDR_INDEX)
T2688 000:127.256   Value=0xE00FF000
T2688 000:127.270 - 0.036ms returns 0
T2688 000:127.379 JLINK_GetDebugInfo(0x100 = JLINKARM_ROM_TABLE_ADDR_INDEX)
T2688 000:127.398   Value=0xE00FF000
T2688 000:127.411 - 0.037ms returns 0
T2688 000:127.423 JLINK_GetDebugInfo(0x101 = JLINKARM_DEBUG_INFO_ETM_ADDR_INDEX)
T2688 000:127.433   Value=0xE0041000
T2688 000:127.446 - 0.026ms returns 0
T2688 000:127.463 JLINK_ReadMemEx(0xE0041FD0, 0x20 Bytes, Flags = 0x02000004)
T2688 000:127.495   CPU_ReadMem(32 bytes @ 0xE0041FD0)
T2688 000:128.650   Data:  04 00 00 00 00 00 00 00 00 00 00 00 00 00 00 00 ...
T2688 000:128.676 - 1.218ms returns 32 (0x20)
T2688 000:128.694 JLINK_GetDebugInfo(0x102 = JLINKARM_DEBUG_INFO_MTB_ADDR_INDEX)
T2688 000:128.705   Value=0x00000000
T2688 000:128.719 - 0.030ms returns 0
T2688 000:128.731 JLINK_GetDebugInfo(0x103 = JLINKARM_DEBUG_INFO_TPIU_ADDR_INDEX)
T2688 000:128.742   Value=0xE0040000
T2688 000:128.756 - 0.034ms returns 0
T2688 000:128.773 JLINK_GetDebugInfo(0x104 = JLINKARM_DEBUG_INFO_ITM_ADDR_INDEX)
T2688 000:128.784   Value=0xE0000000
T2688 000:128.798 - 0.029ms returns 0
T2688 000:128.810 JLINK_GetDebugInfo(0x105 = JLINKARM_DEBUG_INFO_DWT_ADDR_INDEX)
T2688 000:128.820   Value=0xE0001000
T2688 000:128.834 - 0.029ms returns 0
T2688 000:128.846 JLINK_GetDebugInfo(0x106 = JLINKARM_DEBUG_INFO_FPB_ADDR_INDEX)
T2688 000:128.856   Value=0xE0002000
T2688 000:128.870 - 0.029ms returns 0
T2688 000:128.882 JLINK_GetDebugInfo(0x107 = JLINKARM_DEBUG_INFO_NVIC_ADDR_INDEX)
T2688 000:128.898   Value=0xE000E000
T2688 000:128.915 - 0.037ms returns 0
T2688 000:128.927 JLINK_GetDebugInfo(0x10C = JLINKARM_DEBUG_INFO_DBG_ADDR_INDEX)
T2688 000:128.938   Value=0xE000EDF0
T2688 000:128.952 - 0.029ms returns 0
T2688 000:128.964 JLINK_GetDebugInfo(0x01 = Unknown)
T2688 000:128.977   Value=0x00000001
T2688 000:128.991 - 0.032ms returns 0
T2688 000:129.004 JLINK_ReadMemU32(0xE000ED00, 0x1 Items)
T2688 000:129.025   CPU_ReadMem(4 bytes @ 0xE000ED00)
T2688 000:129.941   Data:  41 C2 0F 41
T2688 000:129.981   Debug reg: CPUID
T2688 000:130.000 - 1.003ms returns 1 (0x1)
T2688 000:130.023 JLINK_GetDebugInfo(0x10F = JLINKARM_DEBUG_INFO_HAS_CORTEX_M_SECURITY_EXT_INDEX)
T2688 000:130.038   Value=0x00000000
T2688 000:130.056 - 0.040ms returns 0
T2688 000:130.073 JLINK_HasError()
T2688 000:130.091 JLINK_SetResetType(JLINKARM_CM3_RESET_TYPE_NORMAL)
T2688 000:130.104 - 0.020ms returns JLINKARM_CM3_RESET_TYPE_NORMAL
T2688 000:130.121 JLINK_Reset()
T2688 000:130.162   CPU is running
T2688 000:130.185   CPU_WriteMem(4 bytes @ 0xE000EDF0)
T2688 000:131.435   CPU is running
T2688 000:131.487   CPU_WriteMem(4 bytes @ 0xE000EDFC)
T2688 000:132.910   Reset: Halt core after reset via DEMCR.VC_CORERESET.
T2688 000:134.255   Reset: Reset device via AIRCR.SYSRESETREQ.
T2688 000:134.292   CPU is running
T2688 000:134.313   CPU_WriteMem(4 bytes @ 0xE000ED0C)
T2688 000:190.014   CPU_ReadMem(4 bytes @ 0xE000EDF0)
T2688 000:191.090   CPU_ReadMem(4 bytes @ 0xE000EDF0)
T2688 000:192.162   CPU is running
T2688 000:192.215   CPU_WriteMem(4 bytes @ 0xE000EDF0)
T2688 000:193.443   CPU is running
T2688 000:193.500   CPU_WriteMem(4 bytes @ 0xE000EDFC)
T2688 000:200.588   CPU_ReadMem(4 bytes @ 0xE000EDF0)
T2688 000:208.768   CPU_WriteMem(4 bytes @ 0xE0002000)
T2688 000:209.955   CPU_ReadMem(4 bytes @ 0xE000EDFC)
T2688 000:210.928   CPU_ReadMem(4 bytes @ 0xE0001000)
T2688 000:211.978 - 81.881ms
T2688 000:212.033 JLINK_HasError()
T2688 000:212.088 JLINK_ReadReg(R15 (PC))
T2688 000:212.153 - 0.072ms returns 0x0800024C
T2688 000:212.181 JLINK_ReadReg(XPSR)
T2688 000:212.223 - 0.052ms returns 0x01000000
T2688 000:212.255 JLINK_Halt()
T2688 000:212.294 - 0.048ms returns 0x00
T2688 000:212.321 JLINK_ReadMemU32(0xE000EDF0, 0x1 Items)
T2688 000:212.348   CPU_ReadMem(4 bytes @ 0xE000EDF0)
T2688 000:213.428   Data:  03 00 03 00
T2688 000:213.474   Debug reg: DHCSR
T2688 000:213.494 - 1.179ms returns 1 (0x1)
T2688 000:213.531 JLINK_WriteU32_64(0xE000EDF0, 0xA05F0003)
T2688 000:213.551   Debug reg: DHCSR
T2688 000:213.984   CPU_WriteMem(4 bytes @ 0xE000EDF0)
T2688 000:214.927 - 1.414ms returns 0 (0x00000000)
T2688 000:214.967 JLINK_WriteU32_64(0xE000EDFC, 0x01000000)
T2688 000:214.983   Debug reg: DEMCR
T2688 000:215.013   CPU_WriteMem(4 bytes @ 0xE000EDFC)
T2688 000:216.023 - 1.092ms returns 0 (0x00000000)
T2688 000:216.372 JLINK_GetHWStatus(...)
T2688 000:216.895 - 0.548ms returns 0
T2688 000:217.027 JLINK_GetNumBPUnits(Type = 0xFFFFFF00)
T2688 000:217.040 - 0.016ms returns 0x06
T2688 000:217.050 JLINK_GetNumBPUnits(Type = 0xF0)
T2688 000:217.059 - 0.012ms returns 0x2000
T2688 000:217.069 JLINK_GetNumWPUnits()
T2688 000:217.077 - 0.012ms returns 4
T2688 000:217.156 JLINK_GetSpeed()
T2688 000:217.166 - 0.013ms returns 1000
T2688 000:217.248 JLINK_ReadMemU32(0xE000E004, 0x1 Items)
T2688 000:217.277   CPU_ReadMem(4 bytes @ 0xE000E004)
T2688 000:218.309   Data:  02 00 00 00
T2688 000:218.339 - 1.098ms returns 1 (0x1)
T2688 000:218.360 JLINK_ReadMemU32(0xE000E004, 0x1 Items)
T2688 000:218.383   CPU_ReadMem(4 bytes @ 0xE000E004)
T2688 000:219.426   Data:  02 00 00 00
T2688 000:219.469 - 1.121ms returns 1 (0x1)
T2688 000:219.500 JLINK_WriteMemEx(0xE0001000, 0x0000001C Bytes, Flags = 0x02000004)
T2688 000:219.523   Data:  01 00 00 00 00 00 00 00 00 00 00 00 00 00 00 00 ...
T2688 000:219.571   CPU_WriteMem(28 bytes @ 0xE0001000)
T2688 000:220.887 - 1.420ms returns 0x1C
T2688 000:220.946 JLINK_HasError()
T2688 000:220.974 JLINK_ReadReg(R15 (PC))
T2688 000:221.006 - 0.052ms returns 0x0800024C
T2688 000:221.049 JLINK_ReadReg(XPSR)
T2688 000:221.073 - 0.035ms returns 0x01000000
T2688 000:231.026 JLINK_ReadMemEx(0xE0001004, 0x4 Bytes, Flags = 0x02000000)
T2688 000:231.097   Data:  00 00 00 00
T2688 000:231.113   Debug reg: DWT_CYCCNT
T2688 000:231.126 - 0.104ms returns 4 (0x4)
T2688 000:364.325 JLINK_HasError()
T2688 000:364.364 JLINK_SetResetType(JLINKARM_CM3_RESET_TYPE_NORMAL)
T2688 000:364.375 - 0.015ms returns JLINKARM_CM3_RESET_TYPE_NORMAL
T2688 000:364.388 JLINK_Reset()
T2688 000:364.412   CPU_WriteMem(4 bytes @ 0xE000EDF0)
T2688 000:365.245   CPU_WriteMem(4 bytes @ 0xE000EDFC)
T2688 000:366.846   Reset: Halt core after reset via DEMCR.VC_CORERESET.
T2688 000:367.932   Reset: Reset device via AIRCR.SYSRESETREQ.
T2688 000:367.971   CPU_WriteMem(4 bytes @ 0xE000ED0C)
T2688 000:421.968   CPU_ReadMem(4 bytes @ 0xE000EDF0)
T2688 000:423.064   CPU_ReadMem(4 bytes @ 0xE000EDF0)
T2688 000:424.161   CPU_WriteMem(4 bytes @ 0xE000EDF0)
T2688 000:425.389   CPU_WriteMem(4 bytes @ 0xE000EDFC)
T2688 000:432.068   CPU_ReadMem(4 bytes @ 0xE000EDF0)
T2688 000:442.540   CPU_WriteMem(4 bytes @ 0xE0002000)
T2688 000:443.945   CPU_ReadMem(4 bytes @ 0xE000EDFC)
T2688 000:445.438   CPU_ReadMem(4 bytes @ 0xE0001000)
T2688 000:446.646 - 82.299ms
T2688 000:447.011 JLINK_HasError()
T2688 000:447.073 JLINK_ReadReg(R15 (PC))
T2688 000:447.117 - 0.058ms returns 0x0800024C
T2688 000:447.153 JLINK_ReadReg(XPSR)
T2688 000:447.203 - 0.063ms returns 0x01000000
T2688 000:451.383 JLINK_ReadMemEx(0x0800024C, 0x3C Bytes, Flags = 0x02000000)
T2688 000:451.487   CPU_ReadMem(128 bytes @ 0x08000240)
T2688 000:454.708    -- Updating C cache (128 bytes @ 0x08000240)
T2688 000:454.801    -- Read from C cache (60 bytes @ 0x0800024C)
T2688 000:454.847   Data:  09 48 80 47 09 48 00 47 FE E7 FE E7 FE E7 FE E7 ...
T2688 000:454.885 - 3.516ms returns 60 (0x3C)
T2688 000:454.934 JLINK_ReadMemEx(0x0800024C, 0x2 Bytes, Flags = 0x02000000)
T2688 000:454.972    -- Read from C cache (2 bytes @ 0x0800024C)
T2688 000:455.009   Data:  09 48
T2688 000:455.048 - 0.126ms returns 2 (0x2)
T2688 000:455.351 JLINK_ReadMemEx(0x0800024E, 0x2 Bytes, Flags = 0x02000000)
T2688 000:455.387    -- Read from C cache (2 bytes @ 0x0800024E)
T2688 000:455.425   Data:  80 47
T2688 000:455.462 - 0.124ms returns 2 (0x2)
T2688 000:455.537 JLINK_ReadMemEx(0x0800024E, 0x2 Bytes, Flags = 0x02000000)
T2688 000:455.569    -- Read from C cache (2 bytes @ 0x0800024E)
T2688 000:455.606   Data:  80 47
T2688 000:455.643 - 0.119ms returns 2 (0x2)
T2688 000:455.676 JLINK_ReadMemEx(0x08000250, 0x3C Bytes, Flags = 0x02000000)
T2688 000:455.705    -- Read from C cache (60 bytes @ 0x08000250)
T2688 000:455.746   Data:  09 48 00 47 FE E7 FE E7 FE E7 FE E7 FE E7 FE E7 ...
T2688 000:455.782 - 0.119ms returns 60 (0x3C)
T2688 000:455.815 JLINK_ReadMemEx(0x08000250, 0x2 Bytes, Flags = 0x02000000)
T2688 000:455.844    -- Read from C cache (2 bytes @ 0x08000250)
T2688 000:455.881   Data:  09 48
T2688 000:455.918 - 0.116ms returns 2 (0x2)
T2688 004:275.759 JLINK_HasError()
T2688 004:275.858 JLINK_ReadReg(R0)
T2688 004:276.733 - 0.893ms returns 0x00000000
T2688 004:276.765 JLINK_ReadReg(R1)
T2688 004:276.777 - 0.016ms returns 0x00000000
T2688 004:276.789 JLINK_ReadReg(R2)
T2688 004:276.799 - 0.014ms returns 0x00000000
T2688 004:276.810 JLINK_ReadReg(R3)
T2688 004:276.820 - 0.014ms returns 0x00000000
T2688 004:276.832 JLINK_ReadReg(R4)
T2688 004:276.841 - 0.014ms returns 0x00000000
T2688 004:276.853 JLINK_ReadReg(R5)
T2688 004:276.863 - 0.014ms returns 0x00000000
T2688 004:276.874 JLINK_ReadReg(R6)
T2688 004:276.884 - 0.014ms returns 0x00000000
T2688 004:276.895 JLINK_ReadReg(R7)
T2688 004:276.904 - 0.014ms returns 0x00000000
T2688 004:276.916 JLINK_ReadReg(R8)
T2688 004:276.934 - 0.023ms returns 0x00000000
T2688 004:276.946 JLINK_ReadReg(R9)
T2688 004:276.955 - 0.014ms returns 0x00000000
T2688 004:276.967 JLINK_ReadReg(R10)
T2688 004:276.976 - 0.014ms returns 0x00000000
T2688 004:276.988 JLINK_ReadReg(R11)
T2688 004:277.065 - 0.086ms returns 0x00000000
T2688 004:277.082 JLINK_ReadReg(R12)
T2688 004:277.092 - 0.014ms returns 0x00000000
T2688 004:277.104 JLINK_ReadReg(R13 (SP))
T2688 004:277.114 - 0.015ms returns 0x20000A10
T2688 004:277.126 JLINK_ReadReg(R14)
T2688 004:277.135 - 0.014ms returns 0xFFFFFFFF
T2688 004:277.147 JLINK_ReadReg(R15 (PC))
T2688 004:277.157 - 0.014ms returns 0x0800024C
T2688 004:277.184 JLINK_ReadReg(XPSR)
T2688 004:277.213 - 0.039ms returns 0x01000000
T2688 004:277.241 JLINK_ReadReg(MSP)
T2688 004:277.260 - 0.027ms returns 0x20000A10
T2688 004:277.279 JLINK_ReadReg(PSP)
T2688 004:277.296 - 0.024ms returns 0x00000000
T2688 004:277.314 JLINK_ReadReg(CFBP)
T2688 004:277.330 - 0.024ms returns 0x00000000
T2688 004:277.350 JLINK_ReadReg(FPSCR)
T2688 004:287.776 - 10.458ms returns 0x00000000
T2688 004:287.835 JLINK_ReadReg(FPS0)
T2688 004:287.856 - 0.028ms returns 0x00000000
T2688 004:287.878 JLINK_ReadReg(FPS1)
T2688 004:287.893 - 0.021ms returns 0x00000000
T2688 004:287.913 JLINK_ReadReg(FPS2)
T2688 004:287.927 - 0.020ms returns 0x00000000
T2688 004:287.948 JLINK_ReadReg(FPS3)
T2688 004:287.962 - 0.020ms returns 0x00000000
T2688 004:287.982 JLINK_ReadReg(FPS4)
T2688 004:287.996 - 0.020ms returns 0x00000000
T2688 004:288.017 JLINK_ReadReg(FPS5)
T2688 004:288.031 - 0.020ms returns 0x00000000
T2688 004:288.051 JLINK_ReadReg(FPS6)
T2688 004:288.065 - 0.020ms returns 0x00000000
T2688 004:288.086 JLINK_ReadReg(FPS7)
T2688 004:288.100 - 0.020ms returns 0x00000000
T2688 004:288.120 JLINK_ReadReg(FPS8)
T2688 004:288.134 - 0.020ms returns 0x00000000
T2688 004:288.154 JLINK_ReadReg(FPS9)
T2688 004:288.189 - 0.042ms returns 0x00000000
T2688 004:288.213 JLINK_ReadReg(FPS10)
T2688 004:288.252 - 0.054ms returns 0x00000000
T2688 004:288.286 JLINK_ReadReg(FPS11)
T2688 004:288.302 - 0.022ms returns 0x00000000
T2688 004:288.322 JLINK_ReadReg(FPS12)
T2688 004:288.336 - 0.020ms returns 0x00000000
T2688 004:288.357 JLINK_ReadReg(FPS13)
T2688 004:288.371 - 0.020ms returns 0x00000000
T2688 004:288.391 JLINK_ReadReg(FPS14)
T2688 004:288.405 - 0.020ms returns 0x00000000
T2688 004:288.426 JLINK_ReadReg(FPS15)
T2688 004:288.440 - 0.020ms returns 0x00000000
T2688 004:288.460 JLINK_ReadReg(FPS16)
T2688 004:288.474 - 0.020ms returns 0x00000000
T2688 004:288.494 JLINK_ReadReg(FPS17)
T2688 004:288.508 - 0.020ms returns 0x00000000
T2688 004:288.529 JLINK_ReadReg(FPS18)
T2688 004:288.543 - 0.020ms returns 0x00000000
T2688 004:288.563 JLINK_ReadReg(FPS19)
T2688 004:288.577 - 0.020ms returns 0x00000000
T2688 004:288.598 JLINK_ReadReg(FPS20)
T2688 004:288.612 - 0.020ms returns 0x00000000
T2688 004:288.632 JLINK_ReadReg(FPS21)
T2688 004:288.646 - 0.020ms returns 0x00000000
T2688 004:288.666 JLINK_ReadReg(FPS22)
T2688 004:288.681 - 0.020ms returns 0x00000000
T2688 004:288.701 JLINK_ReadReg(FPS23)
T2688 004:288.715 - 0.020ms returns 0x00000000
T2688 004:288.735 JLINK_ReadReg(FPS24)
T2688 004:288.750 - 0.020ms returns 0x00000000
T2688 004:288.770 JLINK_ReadReg(FPS25)
T2688 004:288.784 - 0.020ms returns 0x00000000
T2688 004:288.804 JLINK_ReadReg(FPS26)
T2688 004:288.819 - 0.020ms returns 0x00000000
T2688 004:288.839 JLINK_ReadReg(FPS27)
T2688 004:288.853 - 0.020ms returns 0x00000000
T2688 004:288.873 JLINK_ReadReg(FPS28)
T2688 004:288.888 - 0.020ms returns 0x00000000
T2688 004:288.908 JLINK_ReadReg(FPS29)
T2688 004:288.922 - 0.020ms returns 0x00000000
T2688 004:288.942 JLINK_ReadReg(FPS30)
T2688 004:288.956 - 0.020ms returns 0x00000000
T2688 004:288.977 JLINK_ReadReg(FPS31)
T2688 004:288.991 - 0.020ms returns 0x00000000
T2688 004:471.523 JLINK_ReadMemEx(0x20000008, 0x8 Bytes, Flags = 0x02000000)
T2688 004:471.578   CPU_ReadMem(64 bytes @ 0x20000000)
T2688 004:473.305    -- Updating C cache (64 bytes @ 0x20000000)
T2688 004:473.345    -- Read from C cache (8 bytes @ 0x20000008)
T2688 004:473.366   Data:  00 00 00 00 00 00 00 00
T2688 004:473.384 - 1.867ms returns 8 (0x8)
T2684 004:552.929 JLINK_ReadMemEx(0x0800024C, 0x2 Bytes, Flags = 0x02000000)
T2684 004:552.994    -- Read from C cache (2 bytes @ 0x0800024C)
T2684 004:553.024   Data:  09 48
T2684 004:553.046 - 0.124ms returns 2 (0x2)
T2684 004:553.067 JLINK_HasError()
T2684 004:553.090 JLINK_SetBPEx(Addr = 0x0800192C, Type = 0xFFFFFFF2)
T2684 004:553.125 - 0.045ms returns 0x00000001
T2684 004:553.148 JLINK_HasError()
T2684 004:553.166 JLINK_SetBPEx(Addr = 0x0800165E, Type = 0xFFFFFFF2)
T2684 004:553.189 - 0.030ms returns 0x00000002
T2684 004:553.207 JLINK_HasError()
T2684 004:553.224 JLINK_SetBPEx(Addr = 0x08001710, Type = 0xFFFFFFF2)
T2684 004:553.241 - 0.024ms returns 0x00000003
T2684 004:553.257 JLINK_HasError()
T2684 004:553.274 JLINK_SetBPEx(Addr = 0x0800158A, Type = 0xFFFFFFF2)
T2684 004:553.291 - 0.024ms returns 0x00000004
T2684 004:553.309 JLINK_HasError()
T2684 004:553.326 JLINK_SetBPEx(Addr = 0x08001582, Type = 0xFFFFFFF2)
T2684 004:553.343 - 0.024ms returns 0x00000005
T2684 004:553.361 JLINK_HasError()
T2684 004:553.379 JLINK_SetBPEx(Addr = 0x08000DC8, Type = 0xFFFFFFF2)
T2684 004:553.398 - 0.027ms returns 0x00000006
T2684 004:553.417 JLINK_HasError()
T2684 004:553.435 JLINK_SetBPEx(Addr = 0x08000D98, Type = 0xFFFFFFF2)
T2684 004:553.459    -- BP[0] @ 0x0800192C converted into FlashBP
T2684 004:553.481 - 0.053ms returns 0x00000007
T2684 004:553.499 JLINK_HasError()
T2684 004:553.517 JLINK_SetBPEx(Addr = 0x08000D6E, Type = 0xFFFFFFF2)
T2684 004:553.539    -- BP[1] @ 0x0800165E converted into FlashBP
T2684 004:553.562 - 0.052ms returns 0x00000008
T2684 004:553.580 JLINK_HasError()
T2684 004:553.598 JLINK_SetBPEx(Addr = 0x08000D5C, Type = 0xFFFFFFF2)
T2684 004:553.619    -- BP[2] @ 0x08001710 converted into FlashBP
T2684 004:553.641 - 0.051ms returns 0x00000009
T2684 004:553.661 JLINK_HasError()
T2684 004:553.680 JLINK_SetBPEx(Addr = 0x08000D92, Type = 0xFFFFFFF2)
T2684 004:553.700    -- BP[3] @ 0x0800158A converted into FlashBP
T2684 004:553.724 - 0.051ms returns 0x0000000A
T2684 004:553.742 JLINK_HasError()
T2684 004:553.761 JLINK_SetBPEx(Addr = 0x08000D1C, Type = 0xFFFFFFF2)
T2684 004:553.782    -- BP[4] @ 0x08001582 converted into FlashBP
T2684 004:553.804 - 0.051ms returns 0x0000000B
T2684 004:553.823 JLINK_HasError()
T2684 004:553.842 JLINK_HasError()
T2684 004:553.861 JLINK_Go()
T2684 004:553.885    -- Read from C cache (2 bytes @ 0x0800024C)
T2684 004:553.914   CPU_ReadMem(4 bytes @ 0xE000ED18)
T2684 004:554.869   CPU_WriteMem(4 bytes @ 0xE000ED18)
T2684 004:555.869   CPU_ReadMem(4 bytes @ 0xE000ED18)
T2684 004:556.621   CPU_WriteMem(4 bytes @ 0xE000ED18)
T2684 004:557.387    -- Read from C cache (4 bytes @ 0x08000274)
T2684 004:557.422   -- Simulated
T2684 004:557.447    -- Read from C cache (2 bytes @ 0x0800024E)
T2684 004:557.470   -- Simulated
T2684 004:557.498   CPU_ReadMem(64 bytes @ 0x08001700)
T2684 004:559.128    -- Updating C cache (64 bytes @ 0x08001700)
T2684 004:559.171    -- Read from C cache (2 bytes @ 0x0800172C)
T2684 004:559.207    -- Read from C cache (4 bytes @ 0x08001738)
T2684 004:559.234   -- Simulated
T2684 004:559.260    -- Read from C cache (2 bytes @ 0x0800172E)
T2684 004:559.284   -- Not simulated
T2684 004:559.312   CPU_ReadMem(4 bytes @ 0xE000ED90)
T2684 004:560.249   CPU_ReadMem(4 bytes @ 0xE000ED94)
T2684 004:561.014    -- Start of preparing flash programming
T2684 004:561.073    -- Calculating RAM usage
T2684 004:561.198    -- RAM usage = 10100 Bytes
T2684 004:561.227    -- Preserving CPU registers
T2684 004:561.279    -- Preparing target
T2684 004:568.995    -- Preserving target RAM temporarily used for programming
T2684 004:703.663    -- Downloading RAMCode
T2684 004:742.366    -- Preparing RAMCode
T2684 004:753.850    -- Checking target RAM
T2684 004:756.596    -- End of preparing flash programming
T2684 004:756.625   CPU_ReadMem(16384 bytes @ 0x08000000)
T2684 004:974.530    -- Updating flash cache (16384 bytes @ 0x08000000)
T2684 004:974.625    -- Updating flash cache invalid range 0x08000000 - 0x08003FFF (16384 bytes)
T2684 004:974.658    -- Programming range 0x08000000 - 0x08003FFF (  1 Sector, 16 KB)
T2684 004:974.984   Looking for J-Link GUI Server exe at: C:\Keil_v5\ARM\Segger\JLinkGUIServer.exe
T2684 004:975.390   Looking for J-Link GUI Server exe at: \JLinkGUIServer.exe
T2684 005:276.709   Failed to connect to J-Link GUI Server.
T2684 005:723.715    -- Start of restoring
T2684 005:723.763    -- Restoring RAMCode
T2684 005:733.098    -- Restoring target memory
T2684 005:858.457    -- Restore target
T2684 005:863.648    -- Restoring CPU registers
T2684 005:863.703    -- End of restoring
T2684 005:865.783   CPU_WriteMem(4 bytes @ 0xE0002000)
T2684 005:866.722   CPU_ReadMem(4 bytes @ 0xE0002008)
T2684 005:867.773   CPU_WriteMem(4 bytes @ 0xE000EDF4)
T2684 005:868.645   CPU_ReadMem(4 bytes @ 0xE000EDF8)
T2684 005:869.565   CPU_WriteMem(4 bytes @ 0xE0002008)
T2684 005:870.437   CPU_WriteMem(4 bytes @ 0xE000EDF8)
T2684 005:871.510   CPU_WriteMem(4 bytes @ 0xE000EDF4)
T2684 005:872.385   CPU_WriteMem(4 bytes @ 0xE000EDF0)
T2684 005:873.431   CPU_WriteMem(4 bytes @ 0xE000EDF0)
T2684 005:874.467   CPU_ReadMem(4 bytes @ 0xE000EDF0)
T2684 005:875.721   CPU_WriteMem(4 bytes @ 0xE000EDF0)
T2684 005:877.064   CPU_WriteMem(4 bytes @ 0xE0002008)
T2684 005:878.029   CPU_WriteMem(4 bytes @ 0xE000EDF8)
T2684 005:879.061   CPU_WriteMem(4 bytes @ 0xE000EDF4)
T2684 005:880.068   CPU_WriteMem(4 bytes @ 0xE0002000)
T2684 005:881.080   CPU_WriteMem(4 bytes @ 0xE0002000)
T2684 005:882.086   CPU_WriteMem(4 bytes @ 0xE0002000)
T2684 005:883.253   CPU_WriteMem(4 bytes @ 0xE0002000)
T2684 005:884.261   CPU_WriteMem(4 bytes @ 0xE0002000)
T2684 005:885.259   CPU_WriteMem(4 bytes @ 0xE0002000)
T2684 005:886.010   CPU_ReadMem(4 bytes @ 0xE0001000)
T2684 005:886.871   CPU_WriteMem(4 bytes @ 0xE0002008)
T2684 005:886.895   CPU_WriteMem(4 bytes @ 0xE000200C)
T2684 005:886.909   CPU_WriteMem(4 bytes @ 0xE0002010)
T2684 005:886.923   CPU_WriteMem(4 bytes @ 0xE0002014)
T2684 005:886.936   CPU_WriteMem(4 bytes @ 0xE0002018)
T2684 005:886.950   CPU_WriteMem(4 bytes @ 0xE000201C)
T2684 005:896.005 - 1342.180ms
T2684 005:997.060 JLINK_HasError()
T2684 005:997.097 JLINK_IsHalted()
T2684 006:003.694 - 6.621ms returns TRUE
T2684 006:003.741 JLINK_HasError()
T2684 006:003.779 JLINK_Halt()
T2684 006:003.810 - 0.035ms returns 0x00
T2684 006:003.829 JLINK_IsHalted()
T2684 006:003.858 - 0.034ms returns TRUE
T2684 006:003.877 JLINK_IsHalted()
T2684 006:003.906 - 0.035ms returns TRUE
T2684 006:003.926 JLINK_IsHalted()
T2684 006:003.952 - 0.033ms returns TRUE
T2684 006:003.974 JLINK_HasError()
T2684 006:004.012 JLINK_ReadReg(R15 (PC))
T2684 006:004.055 - 0.049ms returns 0x0800192C
T2684 006:004.079 JLINK_ReadReg(XPSR)
T2684 006:004.110 - 0.038ms returns 0x21000000
T2684 006:004.142 JLINK_HasError()
T2684 006:004.177 JLINK_ClrBPEx(BPHandle = 0x00000001)
T2684 006:004.209 - 0.038ms returns 0x00
T2684 006:004.229 JLINK_HasError()
T2684 006:004.265 JLINK_ClrBPEx(BPHandle = 0x00000002)
T2684 006:004.296 - 0.037ms returns 0x00
T2684 006:004.315 JLINK_HasError()
T2684 006:004.352 JLINK_ClrBPEx(BPHandle = 0x00000003)
T2684 006:004.384 - 0.037ms returns 0x00
T2684 006:004.403 JLINK_HasError()
T2684 006:004.439 JLINK_ClrBPEx(BPHandle = 0x00000004)
T2684 006:004.471 - 0.037ms returns 0x00
T2684 006:004.490 JLINK_HasError()
T2684 006:004.524 JLINK_ClrBPEx(BPHandle = 0x00000005)
T2684 006:004.557 - 0.038ms returns 0x00
T2684 006:004.575 JLINK_HasError()
T2684 006:004.610 JLINK_ClrBPEx(BPHandle = 0x00000006)
T2684 006:004.643 - 0.038ms returns 0x00
T2684 006:004.661 JLINK_HasError()
T2684 006:004.698 JLINK_ClrBPEx(BPHandle = 0x00000007)
T2684 006:004.730 - 0.038ms returns 0x00
T2684 006:004.749 JLINK_HasError()
T2684 006:004.783 JLINK_ClrBPEx(BPHandle = 0x00000008)
T2684 006:004.815 - 0.038ms returns 0x00
T2684 006:004.834 JLINK_HasError()
T2684 006:004.868 JLINK_ClrBPEx(BPHandle = 0x00000009)
T2684 006:004.901 - 0.038ms returns 0x00
T2684 006:004.919 JLINK_HasError()
T2684 006:004.956 JLINK_ClrBPEx(BPHandle = 0x0000000A)
T2684 006:004.988 - 0.038ms returns 0x00
T2684 006:005.006 JLINK_HasError()
T2684 006:005.059 JLINK_ClrBPEx(BPHandle = 0x0000000B)
T2684 006:005.081 - 0.029ms returns 0x00
T2684 006:005.102 JLINK_HasError()
T2684 006:005.127 JLINK_HasError()
T2684 006:005.154 JLINK_ReadMemU32(0xE000ED30, 0x1 Items)
T2684 006:005.187   CPU_ReadMem(4 bytes @ 0xE000ED30)
T2684 006:006.113   Data:  02 00 00 00
T2684 006:006.139 - 0.989ms returns 1 (0x1)
T2684 006:006.161 JLINK_ReadMemU32(0xE0001028, 0x1 Items)
T2684 006:006.181   CPU_ReadMem(4 bytes @ 0xE0001028)
T2684 006:007.002   Data:  00 00 00 00
T2684 006:007.031   Debug reg: DWT_FUNC[0]
T2684 006:007.064 - 0.908ms returns 1 (0x1)
T2684 006:007.086 JLINK_ReadMemU32(0xE0001038, 0x1 Items)
T2684 006:007.107   CPU_ReadMem(4 bytes @ 0xE0001038)
T2684 006:007.883   Data:  00 02 00 00
T2684 006:007.909   Debug reg: DWT_FUNC[1]
T2684 006:007.923 - 0.842ms returns 1 (0x1)
T2684 006:007.945 JLINK_ReadMemU32(0xE0001048, 0x1 Items)
T2684 006:007.966   CPU_ReadMem(4 bytes @ 0xE0001048)
T2684 006:008.899   Data:  00 00 00 00
T2684 006:008.933   Debug reg: DWT_FUNC[2]
T2684 006:008.951 - 1.012ms returns 1 (0x1)
T2684 006:008.980 JLINK_ReadMemU32(0xE0001058, 0x1 Items)
T2684 006:009.008   CPU_ReadMem(4 bytes @ 0xE0001058)
T2684 006:009.899   Data:  00 00 00 00
T2684 006:009.933   Debug reg: DWT_FUNC[3]
T2684 006:009.952 - 0.978ms returns 1 (0x1)
T2684 006:010.105 JLINK_HasError()
T2684 006:010.136 JLINK_ReadReg(R0)
T2684 006:010.157 - 0.028ms returns 0x20000410
T2684 006:010.175 JLINK_ReadReg(R1)
T2684 006:010.189 - 0.020ms returns 0x20000610
T2684 006:010.206 JLINK_ReadReg(R2)
T2684 006:010.219 - 0.020ms returns 0x20000610
T2684 006:010.236 JLINK_ReadReg(R3)
T2684 006:010.250 - 0.020ms returns 0x20000610
T2684 006:010.266 JLINK_ReadReg(R4)
T2684 006:010.280 - 0.020ms returns 0x00000000
T2684 006:010.296 JLINK_ReadReg(R5)
T2684 006:010.310 - 0.020ms returns 0x200003B0
T2684 006:010.326 JLINK_ReadReg(R6)
T2684 006:010.340 - 0.020ms returns 0x00000000
T2684 006:010.356 JLINK_ReadReg(R7)
T2684 006:010.370 - 0.020ms returns 0x00000000
T2684 006:010.386 JLINK_ReadReg(R8)
T2684 006:010.400 - 0.020ms returns 0x00000000
T2684 006:010.416 JLINK_ReadReg(R9)
T2684 006:010.430 - 0.020ms returns 0x00000000
T2684 006:010.446 JLINK_ReadReg(R10)
T2684 006:010.460 - 0.020ms returns 0x08001A44
T2684 006:010.477 JLINK_ReadReg(R11)
T2684 006:010.490 - 0.020ms returns 0x00000000
T2684 006:010.506 JLINK_ReadReg(R12)
T2684 006:010.520 - 0.020ms returns 0x200003F0
T2684 006:010.536 JLINK_ReadReg(R13 (SP))
T2684 006:010.551 - 0.021ms returns 0x20000A10
T2684 006:010.567 JLINK_ReadReg(R14)
T2684 006:010.581 - 0.020ms returns 0x0800023B
T2684 006:010.597 JLINK_ReadReg(R15 (PC))
T2684 006:010.611 - 0.020ms returns 0x0800192C
T2684 006:010.628 JLINK_ReadReg(XPSR)
T2684 006:010.642 - 0.020ms returns 0x21000000
T2684 006:010.658 JLINK_ReadReg(MSP)
T2684 006:010.672 - 0.020ms returns 0x20000A10
T2684 006:010.688 JLINK_ReadReg(PSP)
T2684 006:010.702 - 0.020ms returns 0x00000000
T2684 006:010.718 JLINK_ReadReg(CFBP)
T2684 006:010.732 - 0.020ms returns 0x04000000
T2684 006:010.748 JLINK_ReadReg(FPSCR)
T2684 006:021.184 - 10.477ms returns 0x03000000
T2684 006:021.246 JLINK_ReadReg(FPS0)
T2684 006:021.269 - 0.030ms returns 0x00000000
T2684 006:021.286 JLINK_ReadReg(FPS1)
T2684 006:021.301 - 0.021ms returns 0x00000000
T2684 006:021.318 JLINK_ReadReg(FPS2)
T2684 006:021.332 - 0.020ms returns 0x00000000
T2684 006:021.348 JLINK_ReadReg(FPS3)
T2684 006:021.362 - 0.020ms returns 0x00000000
T2684 006:021.379 JLINK_ReadReg(FPS4)
T2684 006:021.392 - 0.020ms returns 0x00000000
T2684 006:021.409 JLINK_ReadReg(FPS5)
T2684 006:021.422 - 0.020ms returns 0x00000000
T2684 006:021.439 JLINK_ReadReg(FPS6)
T2684 006:021.452 - 0.020ms returns 0x00000000
T2684 006:021.469 JLINK_ReadReg(FPS7)
T2684 006:021.491 - 0.033ms returns 0x00000000
T2684 006:021.527 JLINK_ReadReg(FPS8)
T2684 006:021.557 - 0.040ms returns 0x00000000
T2684 006:021.583 JLINK_ReadReg(FPS9)
T2684 006:021.606 - 0.035ms returns 0x00000000
T2684 006:021.633 JLINK_ReadReg(FPS10)
T2684 006:021.776 - 0.151ms returns 0x00000000
T2684 006:021.796 JLINK_ReadReg(FPS11)
T2684 006:021.811 - 0.021ms returns 0x00000000
T2684 006:021.827 JLINK_ReadReg(FPS12)
T2684 006:021.841 - 0.020ms returns 0x00000000
T2684 006:021.857 JLINK_ReadReg(FPS13)
T2684 006:021.871 - 0.020ms returns 0x00000000
T2684 006:021.888 JLINK_ReadReg(FPS14)
T2684 006:021.901 - 0.020ms returns 0x00000000
T2684 006:021.918 JLINK_ReadReg(FPS15)
T2684 006:021.931 - 0.020ms returns 0x00000000
T2684 006:021.948 JLINK_ReadReg(FPS16)
T2684 006:021.962 - 0.020ms returns 0x00000000
T2684 006:021.978 JLINK_ReadReg(FPS17)
T2684 006:021.992 - 0.020ms returns 0x00000000
T2684 006:022.008 JLINK_ReadReg(FPS18)
T2684 006:022.024 - 0.035ms returns 0x00000000
T2684 006:022.058 JLINK_ReadReg(FPS19)
T2684 006:022.073 - 0.021ms returns 0x00000000
T2684 006:022.090 JLINK_ReadReg(FPS20)
T2684 006:022.104 - 0.020ms returns 0x00000000
T2684 006:022.120 JLINK_ReadReg(FPS21)
T2684 006:022.134 - 0.020ms returns 0x00000000
T2684 006:022.150 JLINK_ReadReg(FPS22)
T2684 006:022.164 - 0.020ms returns 0x00000000
T2684 006:022.180 JLINK_ReadReg(FPS23)
T2684 006:022.194 - 0.020ms returns 0x00000000
T2684 006:022.210 JLINK_ReadReg(FPS24)
T2684 006:022.224 - 0.020ms returns 0x00000000
T2684 006:022.240 JLINK_ReadReg(FPS25)
T2684 006:022.254 - 0.020ms returns 0x00000000
T2684 006:022.270 JLINK_ReadReg(FPS26)
T2684 006:022.284 - 0.020ms returns 0x00000000
T2684 006:022.301 JLINK_ReadReg(FPS27)
T2684 006:022.314 - 0.020ms returns 0x00000000
T2684 006:022.331 JLINK_ReadReg(FPS28)
T2684 006:022.344 - 0.020ms returns 0x00000000
T2684 006:022.361 JLINK_ReadReg(FPS29)
T2684 006:022.375 - 0.020ms returns 0x00000000
T2684 006:022.391 JLINK_ReadReg(FPS30)
T2684 006:022.405 - 0.020ms returns 0x00000000
T2684 006:022.421 JLINK_ReadReg(FPS31)
T2684 006:022.435 - 0.020ms returns 0x00000000
T2688 006:022.749 JLINK_ReadMemEx(0xE000ED28, 0x4 Bytes, Flags = 0x02000000)
T2688 006:022.801   CPU_ReadMem(4 bytes @ 0xE000ED28)
T2688 006:023.633   Data:  00 00 00 00
T2688 006:023.675 - 0.933ms returns 4 (0x4)
T2688 006:027.566 JLINK_HasError()
T2688 006:027.595 JLINK_ReadMemU32(0xE0001004, 0x1 Items)
T2688 006:027.619   CPU_ReadMem(4 bytes @ 0xE0001004)
T2688 006:028.361   Data:  4C 2E 6C 06
T2688 006:028.385   Debug reg: DWT_CYCCNT
T2688 006:028.398 - 0.807ms returns 1 (0x1)
T2688 006:028.673 JLINK_ReadMemEx(0x20000008, 0x8 Bytes, Flags = 0x02000000)
T2688 006:028.699   CPU_ReadMem(64 bytes @ 0x20000000)
T2688 006:030.401    -- Updating C cache (64 bytes @ 0x20000000)
T2688 006:030.432    -- Read from C cache (8 bytes @ 0x20000008)
T2688 006:030.452   Data:  00 00 00 00 00 00 00 00
T2688 006:030.471 - 1.804ms returns 8 (0x8)
T2684 007:031.645 JLINK_ReadMemEx(0x0800192C, 0x2 Bytes, Flags = 0x02000000)
T2684 007:031.681    -- Merging zombie BP[0]: 0xF7FF @ 0x0800192C
T2684 007:031.696    -- Merging zombie BP[0]: 0xF7FF @ 0x0800192C
T2684 007:031.710   Data:  FF F7
T2684 007:031.723 - 0.083ms returns 2 (0x2)
T2684 007:031.737 JLINK_HasError()
T2684 007:031.750 JLINK_SetBPEx(Addr = 0x0800165E, Type = 0xFFFFFFF2)
T2684 007:031.768 - 0.022ms returns 0x0000000C
T2684 007:031.780 JLINK_HasError()
T2684 007:031.791 JLINK_SetBPEx(Addr = 0x08001710, Type = 0xFFFFFFF2)
T2684 007:031.802 - 0.015ms returns 0x0000000D
T2684 007:031.813 JLINK_HasError()
T2684 007:031.824 JLINK_SetBPEx(Addr = 0x0800158A, Type = 0xFFFFFFF2)
T2684 007:031.835 - 0.014ms returns 0x0000000E
T2684 007:031.846 JLINK_HasError()
T2684 007:031.857 JLINK_SetBPEx(Addr = 0x08001582, Type = 0xFFFFFFF2)
T2684 007:031.868 - 0.015ms returns 0x0000000F
T2684 007:031.879 JLINK_HasError()
T2684 007:031.890 JLINK_SetBPEx(Addr = 0x08000DC8, Type = 0xFFFFFFF2)
T2684 007:031.901 - 0.015ms returns 0x00000010
T2684 007:031.913 JLINK_HasError()
T2684 007:031.924 JLINK_SetBPEx(Addr = 0x08000D98, Type = 0xFFFFFFF2)
T2684 007:031.934 - 0.014ms returns 0x00000011
T2684 007:031.945 JLINK_HasError()
T2684 007:031.957 JLINK_SetBPEx(Addr = 0x08000D6E, Type = 0xFFFFFFF2)
T2684 007:031.973 - 0.025ms returns 0x00000012
T2684 007:031.989 JLINK_HasError()
T2684 007:032.000 JLINK_SetBPEx(Addr = 0x08000D5C, Type = 0xFFFFFFF2)
T2684 007:032.011 - 0.015ms returns 0x00000013
T2684 007:032.022 JLINK_HasError()
T2684 007:032.033 JLINK_SetBPEx(Addr = 0x08000D92, Type = 0xFFFFFFF2)
T2684 007:032.071 - 0.052ms returns 0x00000014
T2684 007:032.105 JLINK_HasError()
T2684 007:032.117 JLINK_SetBPEx(Addr = 0x08000D1C, Type = 0xFFFFFFF2)
T2684 007:032.130 - 0.017ms returns 0x00000015
T2684 007:032.142 JLINK_HasError()
T2684 007:032.153 JLINK_HasError()
T2684 007:032.165 JLINK_Go()
T2684 007:033.018    -- Merging zombie BP[0]: 0xF7FF @ 0x0800192C
T2684 007:033.056    -- Merging zombie BP[0]: 0xF7FF @ 0x0800192C
T2684 007:033.073    -- Read from flash cache (2 bytes @ 0x0800192E)
T2684 007:033.099   -- Simulated
T2684 007:033.114    -- Read from flash cache (2 bytes @ 0x08000B84)
T2684 007:033.128    -- Read from flash cache (4 bytes @ 0x08000BB4)
T2684 007:033.142   -- Simulated
T2684 007:033.156    -- Read from flash cache (2 bytes @ 0x08000B86)
T2684 007:033.181   CPU_WriteMem(8 bytes @ 0x20000A08)
T2684 007:034.394   -- Simulated
T2684 007:034.463    -- Read from flash cache (2 bytes @ 0x08000B88)
T2684 007:034.493   -- Not simulated
T2684 007:034.523   CPU_ReadMem(4 bytes @ 0xE000ED90)
T2684 007:035.260   CPU_ReadMem(4 bytes @ 0xE000ED94)
T2684 007:036.004    -- Start of preparing flash programming
T2684 007:036.030    -- Calculating RAM usage
T2684 007:036.052    -- RAM usage = 10100 Bytes
T2684 007:036.071    -- Preserving CPU registers
T2684 007:036.104    -- Preparing target
T2684 007:042.995    -- Preserving target RAM temporarily used for programming
T2684 007:177.741    -- Downloading RAMCode
T2684 007:217.408    -- Preparing RAMCode
T2684 007:230.049    -- End of preparing flash programming
T2684 007:230.142    -- Read from flash cache (16384 bytes @ 0x08000000)
T2684 007:230.175    -- Programming range 0x08000000 - 0x08003FFF (  1 Sector, 16 KB)
T2684 007:678.514    -- Start of restoring
T2684 007:678.553    -- Restoring RAMCode
T2684 007:687.514    -- Restoring target memory
T2684 007:812.283    -- Restore target
T2684 007:817.951    -- Restoring CPU registers
T2684 007:818.046    -- End of restoring
T2684 007:820.699   CPU_WriteMem(4 bytes @ 0xE0002000)
T2684 007:821.616   CPU_ReadMem(4 bytes @ 0xE0002008)
T2684 007:822.394   CPU_WriteMem(4 bytes @ 0xE000EDF4)
T2684 007:823.267   CPU_ReadMem(4 bytes @ 0xE000EDF8)
T2684 007:824.220   CPU_WriteMem(4 bytes @ 0xE0002008)
T2684 007:825.307   CPU_WriteMem(4 bytes @ 0xE000EDF8)
T2684 007:826.439   CPU_WriteMem(4 bytes @ 0xE000EDF4)
T2684 007:827.544   CPU_WriteMem(4 bytes @ 0xE000EDF0)
T2684 007:828.693   CPU_WriteMem(4 bytes @ 0xE000EDF0)
T2684 007:829.721   CPU_ReadMem(4 bytes @ 0xE000EDF0)
T2684 007:830.680   CPU_WriteMem(4 bytes @ 0xE000EDF0)
T2684 007:831.666   CPU_WriteMem(4 bytes @ 0xE0002008)
T2684 007:832.532   CPU_WriteMem(4 bytes @ 0xE000EDF8)
T2684 007:833.385   CPU_WriteMem(4 bytes @ 0xE000EDF4)
T2684 007:834.516   CPU_WriteMem(4 bytes @ 0xE0002000)
T2684 007:835.395   CPU_WriteMem(4 bytes @ 0xE0002000)
T2684 007:836.280   CPU_WriteMem(4 bytes @ 0xE0002000)
T2684 007:837.275   CPU_WriteMem(4 bytes @ 0xE0002000)
T2684 007:838.307   CPU_WriteMem(4 bytes @ 0xE0002000)
T2684 007:839.255   CPU_WriteMem(4 bytes @ 0xE0002000)
T2684 007:840.006   CPU_ReadMem(4 bytes @ 0xE0001000)
T2684 007:840.885   CPU_WriteMem(4 bytes @ 0xE0002008)
T2684 007:840.917   CPU_WriteMem(4 bytes @ 0xE000200C)
T2684 007:840.931   CPU_WriteMem(4 bytes @ 0xE0002010)
T2684 007:840.945   CPU_WriteMem(4 bytes @ 0xE0002014)
T2684 007:840.958   CPU_WriteMem(4 bytes @ 0xE0002018)
T2684 007:840.972   CPU_WriteMem(4 bytes @ 0xE000201C)
T2684 007:849.875 - 817.736ms
T2684 007:949.989 JLINK_HasError()
T2684 007:950.039 JLINK_IsHalted()
T2684 007:957.232 - 7.226ms returns TRUE
T2684 007:957.292 JLINK_HasError()
T2684 007:957.311 JLINK_Halt()
T2684 007:957.325 - 0.020ms returns 0x00
T2684 007:957.346 JLINK_IsHalted()
T2684 007:957.372 - 0.031ms returns TRUE
T2684 007:957.392 JLINK_IsHalted()
T2684 007:957.406 - 0.019ms returns TRUE
T2684 007:957.424 JLINK_IsHalted()
T2684 007:957.437 - 0.019ms returns TRUE
T2684 007:957.458 JLINK_HasError()
T2684 007:957.475 JLINK_ReadReg(R15 (PC))
T2684 007:957.495 - 0.026ms returns 0x08001710
T2684 007:957.515 JLINK_ReadReg(XPSR)
T2684 007:957.530 - 0.021ms returns 0x41000000
T2684 007:957.554 JLINK_HasError()
T2684 007:957.575 JLINK_ClrBPEx(BPHandle = 0x0000000C)
T2684 007:957.590 - 0.021ms returns 0x00
T2684 007:957.610 JLINK_HasError()
T2684 007:957.626 JLINK_ClrBPEx(BPHandle = 0x0000000D)
T2684 007:957.640 - 0.020ms returns 0x00
T2684 007:957.660 JLINK_HasError()
T2684 007:957.676 JLINK_ClrBPEx(BPHandle = 0x0000000E)
T2684 007:957.690 - 0.020ms returns 0x00
T2684 007:958.647 JLINK_HasError()
T2684 007:958.690 JLINK_ClrBPEx(BPHandle = 0x0000000F)
T2684 007:958.719 - 0.040ms returns 0x00
T2684 007:958.746 JLINK_HasError()
T2684 007:958.765 JLINK_ClrBPEx(BPHandle = 0x00000010)
T2684 007:958.780 - 0.022ms returns 0x00
T2684 007:958.797 JLINK_HasError()
T2684 007:958.813 JLINK_ClrBPEx(BPHandle = 0x00000011)
T2684 007:958.828 - 0.021ms returns 0x00
T2684 007:958.844 JLINK_HasError()
T2684 007:958.877 JLINK_ClrBPEx(BPHandle = 0x00000012)
T2684 007:958.890 - 0.019ms returns 0x00
T2684 007:958.905 JLINK_HasError()
T2684 007:958.920 JLINK_ClrBPEx(BPHandle = 0x00000013)
T2684 007:958.941 - 0.030ms returns 0x00
T2684 007:958.964 JLINK_HasError()
T2684 007:958.989 JLINK_ClrBPEx(BPHandle = 0x00000014)
T2684 007:959.004 - 0.021ms returns 0x00
T2684 007:959.020 JLINK_HasError()
T2684 007:959.035 JLINK_ClrBPEx(BPHandle = 0x00000015)
T2684 007:959.048 - 0.019ms returns 0x00
T2684 007:959.063 JLINK_HasError()
T2684 007:959.078 JLINK_HasError()
T2684 007:959.093 JLINK_ReadMemU32(0xE000ED30, 0x1 Items)
T2684 007:959.119   CPU_ReadMem(4 bytes @ 0xE000ED30)
T2684 007:960.189   Data:  02 00 00 00
T2684 007:960.240 - 1.153ms returns 1 (0x1)
T2684 007:960.267 JLINK_ReadMemU32(0xE0001028, 0x1 Items)
T2684 007:960.301   CPU_ReadMem(4 bytes @ 0xE0001028)
T2684 007:961.324   Data:  00 00 00 00
T2684 007:961.357   Debug reg: DWT_FUNC[0]
T2684 007:961.376 - 1.116ms returns 1 (0x1)
T2684 007:961.398 JLINK_ReadMemU32(0xE0001038, 0x1 Items)
T2684 007:961.432   CPU_ReadMem(4 bytes @ 0xE0001038)
T2684 007:962.633   Data:  00 02 00 00
T2684 007:962.682   Debug reg: DWT_FUNC[1]
T2684 007:962.701 - 1.309ms returns 1 (0x1)
T2684 007:962.726 JLINK_ReadMemU32(0xE0001048, 0x1 Items)
T2684 007:962.759   CPU_ReadMem(4 bytes @ 0xE0001048)
T2684 007:963.962   Data:  00 00 00 00
T2684 007:964.004   Debug reg: DWT_FUNC[2]
T2684 007:964.023 - 1.303ms returns 1 (0x1)
T2684 007:964.048 JLINK_ReadMemU32(0xE0001058, 0x1 Items)
T2684 007:964.078   CPU_ReadMem(4 bytes @ 0xE0001058)
T2684 007:965.075   Data:  00 00 00 00
T2684 007:965.109   Debug reg: DWT_FUNC[3]
T2684 007:965.127 - 1.086ms returns 1 (0x1)
T2684 007:965.230 JLINK_HasError()
T2684 007:965.251 JLINK_ReadReg(R0)
T2684 007:965.271 - 0.027ms returns 0x00001000
T2684 007:965.289 JLINK_ReadReg(R1)
T2684 007:965.302 - 0.020ms returns 0x10000000
T2684 007:965.319 JLINK_ReadReg(R2)
T2684 007:965.333 - 0.020ms returns 0x000000D8
T2684 007:965.349 JLINK_ReadReg(R3)
T2684 007:965.363 - 0.020ms returns 0x10000000
T2684 007:965.379 JLINK_ReadReg(R4)
T2684 007:965.400 - 0.027ms returns 0x00000002
T2684 007:965.417 JLINK_ReadReg(R5)
T2684 007:965.431 - 0.020ms returns 0x00000000
T2684 007:965.447 JLINK_ReadReg(R6)
T2684 007:965.461 - 0.020ms returns 0x0000000F
T2684 007:965.477 JLINK_ReadReg(R7)
T2684 007:965.491 - 0.020ms returns 0x00000000
T2684 007:965.507 JLINK_ReadReg(R8)
T2684 007:965.521 - 0.020ms returns 0x00000000
T2684 007:965.538 JLINK_ReadReg(R9)
T2684 007:965.552 - 0.020ms returns 0x00000000
T2684 007:965.568 JLINK_ReadReg(R10)
T2684 007:965.582 - 0.020ms returns 0x08001A44
T2684 007:965.598 JLINK_ReadReg(R11)
T2684 007:965.612 - 0.020ms returns 0x00000000
T2684 007:965.628 JLINK_ReadReg(R12)
T2684 007:965.649 - 0.031ms returns 0x00000000
T2684 007:965.670 JLINK_ReadReg(R13 (SP))
T2684 007:965.685 - 0.021ms returns 0x200009B8
T2684 007:965.702 JLINK_ReadReg(R14)
T2684 007:965.715 - 0.020ms returns 0x08000CCF
T2684 007:965.732 JLINK_ReadReg(R15 (PC))
T2684 007:965.746 - 0.020ms returns 0x08001710
T2684 007:965.762 JLINK_ReadReg(XPSR)
T2684 007:965.776 - 0.020ms returns 0x41000000
T2684 007:965.793 JLINK_ReadReg(MSP)
T2684 007:965.806 - 0.020ms returns 0x200009B8
T2684 007:965.823 JLINK_ReadReg(PSP)
T2684 007:965.836 - 0.020ms returns 0x00000000
T2684 007:965.853 JLINK_ReadReg(CFBP)
T2684 007:965.867 - 0.020ms returns 0x04000000
T2684 007:965.883 JLINK_ReadReg(FPSCR)
T2684 007:976.269 - 10.410ms returns 0x03000000
T2684 007:976.308 JLINK_ReadReg(FPS0)
T2684 007:976.323 - 0.019ms returns 0x00000000
T2684 007:976.335 JLINK_ReadReg(FPS1)
T2684 007:976.345 - 0.014ms returns 0x00000000
T2684 007:976.356 JLINK_ReadReg(FPS2)
T2684 007:976.378 - 0.026ms returns 0x00000000
T2684 007:976.390 JLINK_ReadReg(FPS3)
T2684 007:976.399 - 0.014ms returns 0x00000000
T2684 007:976.410 JLINK_ReadReg(FPS4)
T2684 007:976.420 - 0.014ms returns 0x00000000
T2684 007:976.431 JLINK_ReadReg(FPS5)
T2684 007:976.441 - 0.014ms returns 0x00000000
T2684 007:976.452 JLINK_ReadReg(FPS6)
T2684 007:976.462 - 0.014ms returns 0x00000000
T2684 007:976.473 JLINK_ReadReg(FPS7)
T2684 007:976.483 - 0.014ms returns 0x00000000
T2684 007:976.494 JLINK_ReadReg(FPS8)
T2684 007:976.503 - 0.014ms returns 0x00000000
T2684 007:976.515 JLINK_ReadReg(FPS9)
T2684 007:976.524 - 0.014ms returns 0x00000000
T2684 007:976.536 JLINK_ReadReg(FPS10)
T2684 007:976.545 - 0.014ms returns 0x00000000
T2684 007:976.557 JLINK_ReadReg(FPS11)
T2684 007:976.566 - 0.014ms returns 0x00000000
T2684 007:976.578 JLINK_ReadReg(FPS12)
T2684 007:976.587 - 0.013ms returns 0x00000000
T2684 007:976.598 JLINK_ReadReg(FPS13)
T2684 007:976.608 - 0.013ms returns 0x00000000
T2684 007:976.619 JLINK_ReadReg(FPS14)
T2684 007:976.628 - 0.013ms returns 0x00000000
T2684 007:976.640 JLINK_ReadReg(FPS15)
T2684 007:976.649 - 0.013ms returns 0x00000000
T2684 007:976.661 JLINK_ReadReg(FPS16)
T2684 007:976.670 - 0.013ms returns 0x00000000
T2684 007:976.681 JLINK_ReadReg(FPS17)
T2684 007:976.691 - 0.014ms returns 0x00000000
T2684 007:976.702 JLINK_ReadReg(FPS18)
T2684 007:976.712 - 0.013ms returns 0x00000000
T2684 007:976.723 JLINK_ReadReg(FPS19)
T2684 007:976.732 - 0.013ms returns 0x00000000
T2684 007:976.744 JLINK_ReadReg(FPS20)
T2684 007:976.753 - 0.014ms returns 0x00000000
T2684 007:976.764 JLINK_ReadReg(FPS21)
T2684 007:976.774 - 0.013ms returns 0x00000000
T2684 007:976.785 JLINK_ReadReg(FPS22)
T2684 007:976.794 - 0.013ms returns 0x00000000
T2684 007:976.806 JLINK_ReadReg(FPS23)
T2684 007:976.815 - 0.013ms returns 0x00000000
T2684 007:976.826 JLINK_ReadReg(FPS24)
T2684 007:976.836 - 0.014ms returns 0x00000000
T2684 007:976.847 JLINK_ReadReg(FPS25)
T2684 007:976.856 - 0.014ms returns 0x00000000
T2684 007:976.868 JLINK_ReadReg(FPS26)
T2684 007:976.877 - 0.014ms returns 0x00000000
T2684 007:976.889 JLINK_ReadReg(FPS27)
T2684 007:976.898 - 0.014ms returns 0x00000000
T2684 007:976.910 JLINK_ReadReg(FPS28)
T2684 007:976.919 - 0.014ms returns 0x00000000
T2684 007:976.930 JLINK_ReadReg(FPS29)
T2684 007:976.940 - 0.013ms returns 0x00000000
T2684 007:976.951 JLINK_ReadReg(FPS30)
T2684 007:976.960 - 0.014ms returns 0x00000000
T2684 007:976.972 JLINK_ReadReg(FPS31)
T2684 007:976.981 - 0.014ms returns 0x00000000
T2688 007:977.206 JLINK_ReadMemEx(0x20000A0C, 0x4 Bytes, Flags = 0x02000000)
T2688 007:977.242   CPU_ReadMem(64 bytes @ 0x20000A00)
T2688 007:979.078    -- Updating C cache (64 bytes @ 0x20000A00)
T2688 007:979.127    -- Read from C cache (4 bytes @ 0x20000A0C)
T2688 007:979.148   Data:  35 19 00 08
T2688 007:979.168 - 1.968ms returns 4 (0x4)
T2688 007:979.206 JLINK_ReadMemEx(0x20000A00, 0x4 Bytes, Flags = 0x02000000)
T2688 007:979.231    -- Read from C cache (4 bytes @ 0x20000A00)
T2688 007:979.250   Data:  00 00 00 00
T2688 007:979.280 - 0.081ms returns 4 (0x4)
T2688 007:979.298 JLINK_ReadMemEx(0x20000A04, 0x4 Bytes, Flags = 0x02000000)
T2688 007:979.315    -- Read from C cache (4 bytes @ 0x20000A04)
T2688 007:979.334   Data:  B0 03 00 20
T2688 007:979.352 - 0.060ms returns 4 (0x4)
T2688 007:979.369 JLINK_ReadMemEx(0x20000A08, 0x4 Bytes, Flags = 0x02000000)
T2688 007:979.384    -- Read from C cache (4 bytes @ 0x20000A08)
T2688 007:979.403   Data:  00 00 00 00
T2688 007:979.421 - 0.059ms returns 4 (0x4)
T2688 007:979.438 JLINK_ReadMemEx(0x20000A0C, 0x4 Bytes, Flags = 0x02000000)
T2688 007:979.453    -- Read from C cache (4 bytes @ 0x20000A0C)
T2688 007:979.472   Data:  35 19 00 08
T2688 007:979.491 - 0.058ms returns 4 (0x4)
T2688 007:979.586 JLINK_ReadMemEx(0x200009FC, 0x4 Bytes, Flags = 0x02000000)
T2688 007:979.622   CPU_ReadMem(64 bytes @ 0x200009C0)
T2688 007:981.701    -- Updating C cache (64 bytes @ 0x200009C0)
T2688 007:981.750    -- Read from C cache (4 bytes @ 0x200009FC)
T2688 007:981.772   Data:  00 C0 00 00
T2688 007:981.792 - 2.212ms returns 4 (0x4)
T2688 007:987.454 JLINK_ReadMemEx(0x200009FC, 0x4 Bytes, Flags = 0x02000000)
T2688 007:987.502    -- Read from C cache (4 bytes @ 0x200009FC)
T2688 007:987.518   Data:  00 C0 00 00
T2688 007:987.532 - 0.083ms returns 4 (0x4)
T2688 007:987.587 JLINK_HasError()
T2688 007:987.605 JLINK_ReadMemU32(0xE0001004, 0x1 Items)
T2688 007:987.625   CPU_ReadMem(4 bytes @ 0xE0001004)
T2688 007:988.691   Data:  6A 91 67 09
T2688 007:988.741   Debug reg: DWT_CYCCNT
T2688 007:988.759 - 1.161ms returns 1 (0x1)
T2688 007:989.189 JLINK_ReadMemEx(0x20000008, 0x8 Bytes, Flags = 0x02000000)
T2688 007:989.232   CPU_ReadMem(64 bytes @ 0x20000000)
T2688 007:990.988    -- Updating C cache (64 bytes @ 0x20000000)
T2688 007:991.037    -- Read from C cache (8 bytes @ 0x20000008)
